time	V(n001)	I(L1)
0.000000000000000e+000	1.000000e+001	1.000000e-011
9.999999717180685e-010	1.000000e+001	1.001000e-008
1.999999943436137e-009	1.000000e+001	2.001000e-008
6.682461075072516e-003	9.821587e+000	6.618610e-002
1.336492015014509e-002	9.630691e+000	1.309767e-001
2.004737922521766e-002	9.427311e+000	1.943717e-001
2.672983830029023e-002	9.211448e+000	2.563713e-001
3.341229737536280e-002	8.983102e+000	3.169753e-001
4.009475645043538e-002	8.742273e+000	3.761838e-001
4.677721552550793e-002	8.488960e+000	4.339969e-001
5.677721552550794e-002	8.091526e+000	5.168945e-001
6.677721552550793e-002	7.671962e+000	5.957064e-001
7.677721552550793e-002	7.232471e+000	6.702222e-001
8.677721552550792e-002	6.775279e+000	7.402539e-001
9.677721552550792e-002	6.302627e+000	8.056357e-001
1.067772155255079e-001	5.816763e+000	8.662243e-001
1.167772155255079e-001	5.319930e+000	9.218988e-001
1.267772155255079e-001	4.814359e+000	9.725608e-001
1.367772155255079e-001	4.302262e+000	1.018134e+000
1.567772155255079e-001	3.267183e+000	1.093818e+000
1.767772155255080e-001	2.231663e+000	1.148775e+000
1.967772155255080e-001	1.211856e+000	1.183157e+000
2.067772155255080e-001	7.126154e-001	1.192768e+000
2.167772155255080e-001	2.228816e-001	1.197433e+000
2.267772155255080e-001	-2.556469e-001	1.197257e+000
2.367772155255080e-001	-7.213578e-001	1.192360e+000
2.467772155255080e-001	-1.172729e+000	1.182878e+000
2.567772155255080e-001	-1.608334e+000	1.168961e+000
2.667772155255080e-001	-2.026841e+000	1.150773e+000
2.767772155255081e-001	-2.427021e+000	1.128493e+000
2.867772155255081e-001	-2.807746e+000	1.102308e+000
2.967772155255081e-001	-3.167995e+000	1.072418e+000
3.067772155255081e-001	-3.506850e+000	1.039033e+000
3.167772155255081e-001	-3.823501e+000	1.002371e+000
3.267772155255081e-001	-4.117248e+000	9.626578e-001
3.367772155255081e-001	-4.387495e+000	9.201247e-001
3.467772155255081e-001	-4.633756e+000	8.750094e-001
3.567772155255081e-001	-4.855651e+000	8.275539e-001
3.767772155255081e-001	-5.225349e+000	7.266043e-001
3.967772155255082e-001	-5.495628e+000	6.192568e-001
4.167772155255082e-001	-5.667126e+000	5.074955e-001
4.267772155255082e-001	-5.716445e+000	4.505729e-001
4.367772155255082e-001	-5.741984e+000	3.932765e-001
4.467772155255082e-001	-5.744230e+000	3.358418e-001
4.567772155255082e-001	-5.723749e+000	2.784988e-001
4.667772155255082e-001	-5.681181e+000	2.214717e-001
4.767772155255082e-001	-5.617241e+000	1.649776e-001
4.867772155255082e-001	-5.532707e+000	1.092265e-001
4.967772155255082e-001	-5.428422e+000	5.442007e-002
5.067772155255083e-001	-5.305285e+000	7.512521e-004
5.167772155255083e-001	-5.164248e+000	-5.159615e-002
5.267772155255083e-001	-5.006307e+000	-1.024482e-001
5.367772155255083e-001	-4.832503e+000	-1.516409e-001
5.467772155255083e-001	-4.643916e+000	-1.990213e-001
5.567772155255083e-001	-4.441653e+000	-2.444469e-001
5.667772155255083e-001	-4.226850e+000	-2.877868e-001
5.767772155255083e-001	-4.000664e+000	-3.289212e-001
5.867772155255083e-001	-3.764270e+000	-3.677424e-001
5.967772155255083e-001	-3.518851e+000	-4.041542e-001
6.067772155255083e-001	-3.265600e+000	-4.380722e-001
6.167772155255084e-001	-3.005710e+000	-4.694242e-001
6.267772155255084e-001	-2.740369e+000	-4.981498e-001
6.367772155255084e-001	-2.470760e+000	-5.242003e-001
6.567772155255084e-001	-1.923398e+000	-5.681407e-001
6.767772155255084e-001	-1.372755e+000	-6.010890e-001
6.967772155255084e-001	-8.275691e-001	-6.230679e-001
7.067772155255084e-001	-5.596162e-001	-6.299976e-001
7.167772155255084e-001	-2.960668e-001	-6.342697e-001
7.267772155255085e-001	-3.785224e-002	-6.359329e-001
7.367772155255085e-001	2.141398e-001	-6.350451e-001
7.467772155255085e-001	4.590682e-001	-6.316727e-001
7.567772155255085e-001	6.961408e-001	-6.258904e-001
7.667772155255085e-001	9.246155e-001	-6.177804e-001
7.767772155255085e-001	1.143803e+000	-6.074322e-001
7.867772155255085e-001	1.353067e+000	-5.949419e-001
7.967772155255085e-001	1.551826e+000	-5.804115e-001
8.067772155255085e-001	1.739556e+000	-5.639489e-001
8.167772155255085e-001	1.915787e+000	-5.456666e-001
8.267772155255085e-001	2.080108e+000	-5.256818e-001
8.367772155255085e-001	2.232164e+000	-5.041153e-001
8.467772155255086e-001	2.371658e+000	-4.810912e-001
8.567772155255086e-001	2.498348e+000	-4.567365e-001
8.667772155255086e-001	2.612051e+000	-4.311801e-001
8.867772155255086e-001	2.800038e+000	-3.769851e-001
9.067772155255086e-001	2.935245e+000	-3.195595e-001
9.267772155255086e-001	3.018137e+000	-2.599550e-001
9.367772155255086e-001	3.040329e+000	-2.296603e-001
9.467772155255086e-001	3.049974e+000	-1.992066e-001
9.567772155255087e-001	3.047342e+000	-1.687182e-001
9.667772155255087e-001	3.032748e+000	-1.383162e-001
9.767772155255087e-001	3.006544e+000	-1.081185e-001
9.867772155255087e-001	2.969120e+000	-7.823928e-002
9.967772155255087e-001	2.920900e+000	-4.878854e-002
1.006777215525509e+000	2.862341e+000	-1.987199e-002
1.016777215525509e+000	2.793931e+000	8.409424e-003
1.026777215525509e+000	2.716180e+000	3.595976e-002
1.036777215525509e+000	2.629628e+000	6.268831e-002
1.046777215525509e+000	2.534833e+000	8.850985e-002
1.056777215525509e+000	2.432372e+000	1.133449e-001
1.066777215525509e+000	2.322839e+000	1.371197e-001
1.076777215525509e+000	2.206841e+000	1.597666e-001
1.086777215525509e+000	2.084994e+000	1.812240e-001
1.096777215525509e+000	1.957926e+000	2.014367e-001
1.106777215525509e+000	1.826265e+000	2.203556e-001
1.116777215525509e+000	1.690645e+000	2.379378e-001
1.126777215525509e+000	1.551699e+000	2.541471e-001
1.136777215525509e+000	1.410057e+000	2.689532e-001
1.146777215525509e+000	1.266344e+000	2.823325e-001
1.166777215525509e+000	9.751733e-001	3.047460e-001
1.186777215525509e+000	6.830046e-001	3.213198e-001
1.206777215525509e+000	3.944380e-001	3.320804e-001
1.216777215525509e+000	2.528678e-001	3.353136e-001
1.226777215525509e+000	1.137931e-001	3.371436e-001
1.236777215525509e+000	-2.229880e-002	3.375977e-001
1.246777215525509e+000	-1.549444e-001	3.367081e-001
1.256777215525509e+000	-2.837052e-001	3.345115e-001
1.266777215525509e+000	-4.081688e-001	3.310488e-001
1.276777215525509e+000	-5.279500e-001	3.263649e-001
1.286777215525509e+000	-6.426917e-001	3.205085e-001
1.296777215525509e+000	-7.520652e-001	3.135315e-001
1.306777215525509e+000	-8.557714e-001	3.054892e-001
1.316777215525509e+000	-9.535408e-001	2.964396e-001
1.326777215525509e+000	-1.045134e+000	2.864434e-001
1.336777215525509e+000	-1.130342e+000	2.755632e-001
1.346777215525509e+000	-1.208986e+000	2.638639e-001
1.356777215525509e+000	-1.280917e+000	2.514117e-001
1.366777215525509e+000	-1.346018e+000	2.382746e-001
1.386777215525509e+000	-1.455402e+000	2.102211e-001
1.406777215525509e+000	-1.536784e+000	1.802602e-001
1.426777215525509e+000	-1.590260e+000	1.489519e-001
1.436777215525509e+000	-1.606681e+000	1.329657e-001
1.446777215525509e+000	-1.616356e+000	1.168493e-001
1.456777215525509e+000	-1.619413e+000	1.006694e-001
1.466777215525509e+000	-1.616003e+000	8.449136e-002
1.476777215525509e+000	-1.606298e+000	6.837909e-002
1.486777215525509e+000	-1.590493e+000	5.239454e-002
1.496777215525509e+000	-1.568800e+000	3.659763e-002
1.506777215525509e+000	-1.541451e+000	2.104609e-002
1.516777215525509e+000	-1.508692e+000	5.795242e-003
1.526777215525509e+000	-1.470787e+000	-9.102138e-003
1.536777215525509e+000	-1.428013e+000	-2.359597e-002
1.546777215525509e+000	-1.380657e+000	-3.763901e-002
1.556777215525509e+000	-1.329021e+000	-5.118696e-002
1.566777215525509e+000	-1.273414e+000	-6.419856e-002
1.576777215525509e+000	-1.214152e+000	-7.663568e-002
1.586777215525509e+000	-1.151561e+000	-8.846343e-002
1.596777215525509e+000	-1.085969e+000	-9.965013e-002
1.606777215525509e+000	-1.017709e+000	-1.101675e-001
1.616777215525509e+000	-9.471176e-001	-1.199905e-001
1.626777215525509e+000	-8.745294e-001	-1.290974e-001
1.636777215525509e+000	-8.002808e-001	-1.374702e-001
1.646777215525509e+000	-7.247057e-001	-1.450937e-001
1.656777215525509e+000	-6.481351e-001	-1.519564e-001
1.676777215525509e+000	-4.933095e-001	-1.633694e-001
1.696777215525509e+000	-3.383463e-001	-1.716813e-001
1.716777215525509e+000	-1.856661e-001	-1.769136e-001
1.726777215525509e+000	-1.108975e-001	-1.783946e-001
1.736777215525509e+000	-3.753611e-002	-1.791350e-001
1.746777215525509e+000	3.416307e-002	-1.791501e-001
1.756777215525509e+000	1.039581e-001	-1.784577e-001
1.766777215525509e+000	1.716205e-001	-1.770780e-001
1.776777215525509e+000	2.369359e-001	-1.750335e-001
1.786777215525509e+000	2.997043e-001	-1.723485e-001
1.796777215525509e+000	3.597408e-001	-1.690496e-001
1.806777215525509e+000	4.168760e-001	-1.651648e-001
1.816777215525509e+000	4.709559e-001	-1.607241e-001
1.826777215525509e+000	5.218424e-001	-1.557585e-001
1.836777215525509e+000	5.694135e-001	-1.503007e-001
1.846777215525509e+000	6.135633e-001	-1.443843e-001
1.856777215525509e+000	6.542019e-001	-1.380441e-001
1.866777215525509e+000	6.912556e-001	-1.313154e-001
1.876777215525509e+000	7.246666e-001	-1.242346e-001
1.896777215525509e+000	7.804080e-001	-1.091629e-001
1.916777215525509e+000	8.212757e-001	-9.312546e-002
1.936777215525509e+000	8.473579e-001	-7.641909e-002
1.946777215525509e+000	8.549443e-001	-6.790686e-002
1.956777215525509e+000	8.589691e-001	-5.933666e-002
1.966777215525509e+000	8.595043e-001	-5.074374e-002
1.976777215525509e+000	8.566338e-001	-4.216259e-002
1.986777215525510e+000	8.504531e-001	-3.362677e-002
1.996777215525510e+000	8.410682e-001	-2.516887e-002
2.006777215525510e+000	8.285953e-001	-1.682035e-002
2.016777215525509e+000	8.131597e-001	-8.611444e-003
2.026777215525509e+000	7.948955e-001	-5.711223e-004
2.036777215525509e+000	7.739446e-001	7.273045e-003
2.046777215525509e+000	7.504560e-001	1.489494e-002
2.056777215525508e+000	7.245851e-001	2.226996e-002
2.066777215525508e+000	6.964926e-001	2.937509e-002
2.076777215525508e+000	6.663443e-001	3.618894e-002
2.086777215525508e+000	6.343099e-001	4.269182e-002
2.096777215525508e+000	6.005625e-001	4.886572e-002
2.106777215525507e+000	5.652775e-001	5.469441e-002
2.116777215525507e+000	5.286320e-001	6.016338e-002
2.126777215525507e+000	4.908045e-001	6.525993e-002
2.136777215525507e+000	4.519731e-001	6.997314e-002
2.146777215525507e+000	4.123161e-001	7.429387e-002
2.156777215525506e+000	3.720103e-001	7.821474e-002
2.166777215525506e+000	3.312308e-001	8.173015e-002
2.186777215525506e+000	2.489383e-001	8.753080e-002
2.206777215525505e+000	1.667792e-001	9.168521e-002
2.226777215525505e+000	8.602698e-002	9.420888e-002
2.236777215525505e+000	4.655378e-002	9.487084e-002
2.246777215525504e+000	7.870900e-003	9.514201e-002
2.256777215525504e+000	-2.988848e-002	9.503097e-002
2.266777215525504e+000	-6.659810e-002	9.454759e-002
2.276777215525504e+000	-1.021390e-001	9.370296e-002
2.286777215525504e+000	-1.363997e-001	9.250934e-002
2.296777215525503e+000	-1.692767e-001	9.098004e-002
2.306777215525503e+000	-2.006741e-001	8.912939e-002
2.316777215525503e+000	-2.305048e-001	8.697261e-002
2.326777215525503e+000	-2.586896e-001	8.452578e-002
2.336777215525502e+000	-2.851578e-001	8.180571e-002
2.346777215525502e+000	-3.098473e-001	7.882988e-002
2.356777215525502e+000	-3.327047e-001	7.561635e-002
2.366777215525502e+000	-3.536848e-001	7.218367e-002
2.376777215525502e+000	-3.727512e-001	6.855078e-002
2.386777215525501e+000	-3.898759e-001	6.473698e-002
2.406777215525501e+000	-4.182297e-001	5.664484e-002
2.426777215525501e+000	-4.386865e-001	4.806478e-002
2.446777215525500e+000	-4.513125e-001	3.915421e-002
2.456777215525500e+000	-4.547423e-001	3.462357e-002
2.466777215525500e+000	-4.562927e-001	3.006807e-002
2.476777215525500e+000	-4.560039e-001	2.550631e-002
2.486777215525499e+000	-4.539224e-001	2.095645e-002
2.496777215525499e+000	-4.501006e-001	1.643614e-002
2.506777215525499e+000	-4.445966e-001	1.196252e-002
2.516777215525499e+000	-4.374737e-001	7.552068e-003
2.526777215525498e+000	-4.287998e-001	3.220647e-003
2.536777215525498e+000	-4.186475e-001	-1.016600e-003
2.546777215525498e+000	-4.070933e-001	-5.145274e-003
2.556777215525498e+000	-3.942176e-001	-9.151757e-003
2.566777215525498e+000	-3.801035e-001	-1.302325e-002
2.576777215525497e+000	-3.648376e-001	-1.674781e-002
2.586777215525497e+000	-3.485083e-001	-2.031435e-002
2.596777215525497e+000	-3.312065e-001	-2.371271e-002
2.606777215525497e+000	-3.130243e-001	-2.693361e-002
2.616777215525497e+000	-2.940554e-001	-2.996872e-002
2.626777215525496e+000	-2.743939e-001	-3.281065e-002
2.636777215525496e+000	-2.541345e-001	-3.545295e-002
2.646777215525496e+000	-2.333721e-001	-3.789012e-002
2.656777215525496e+000	-2.122009e-001	-4.011760e-002
2.666777215525495e+000	-1.907146e-001	-4.213176e-002
2.686777215525495e+000	-1.471655e-001	-4.551034e-002
2.706777215525495e+000	-1.034468e-001	-4.801530e-002
2.726777215525494e+000	-6.024772e-002	-4.965020e-002
2.736777215525494e+000	-3.904725e-002	-5.014618e-002
2.746777215525494e+000	-1.821583e-002	-5.043199e-002
2.756777215525494e+000	2.173439e-003	-5.051170e-002
2.766777215525493e+000	2.205099e-002	-5.039007e-002
2.776777215525493e+000	4.135099e-002	-5.007256e-002
2.786777215525493e+000	6.001152e-002	-4.956525e-002
2.796777215525493e+000	7.797471e-002	-4.887483e-002
2.806777215525492e+000	9.518686e-002	-4.800853e-002
2.816777215525492e+000	1.115986e-001	-4.697413e-002
2.826777215525492e+000	1.271648e-001	-4.577985e-002
2.836777215525492e+000	1.418450e-001	-4.443435e-002
2.846777215525492e+000	1.556032e-001	-4.294667e-002
2.856777215525491e+000	1.684076e-001	-4.132620e-002
2.866777215525491e+000	1.802314e-001	-3.958260e-002
2.876777215525491e+000	1.910520e-001	-3.772580e-002
2.886777215525491e+000	2.008515e-001	-3.576591e-002
2.906777215525490e+000	2.173379e-001	-3.157812e-002
2.926777215525490e+000	2.296350e-001	-2.710256e-002
2.946777215525489e+000	2.377556e-001	-2.242298e-002
2.956777215525489e+000	2.402714e-001	-2.003263e-002
2.966777215525489e+000	2.417767e-001	-1.762220e-002
2.976777215525489e+000	2.422907e-001	-1.520170e-002
2.986777215525489e+000	2.418356e-001	-1.278093e-002
2.996777215525488e+000	2.404373e-001	-1.036945e-002
3.006777215525488e+000	2.381245e-001	-7.976546e-003
3.016777215525488e+000	2.349289e-001	-5.611212e-003
3.026777215525488e+000	2.308849e-001	-3.282099e-003
3.036777215525488e+000	2.260293e-001	-9.975064e-004
3.046777215525487e+000	2.204015e-001	1.234647e-003
3.056777215525487e+000	2.140427e-001	3.406845e-003
3.066777215525487e+000	2.069959e-001	5.511993e-003
3.076777215525487e+000	1.993061e-001	7.543438e-003
3.086777215525487e+000	1.910193e-001	9.494979e-003
3.096777215525486e+000	1.821831e-001	1.136089e-002
3.106777215525486e+000	1.728459e-001	1.313591e-002
3.116777215525486e+000	1.630569e-001	1.481528e-002
3.126777215525486e+000	1.528658e-001	1.639474e-002
3.136777215525485e+000	1.423229e-001	1.787051e-002
3.146777215525485e+000	1.314784e-001	1.923933e-002
3.156777215525485e+000	1.203826e-001	2.049844e-002
3.166777215525485e+000	1.090855e-001	2.164557e-002
3.176777215525485e+000	9.763653e-002	2.267896e-002
3.196777215525484e+000	7.447827e-002	2.439991e-002
3.216777215525484e+000	5.128866e-002	2.565688e-002
3.236777215525483e+000	2.843049e-002	2.645292e-002
3.246777215525483e+000	1.723292e-002	2.668097e-002
3.256777215525483e+000	6.243645e-003	2.679809e-002
3.266777215525483e+000	-4.499089e-003	2.680654e-002
3.276777215525482e+000	-1.495897e-002	2.670899e-002
3.286777215525482e+000	-2.510169e-002	2.650842e-002
3.296777215525482e+000	-3.489505e-002	2.620817e-002
3.306777215525482e+000	-4.430901e-002	2.581189e-002
3.316777215525482e+000	-5.331578e-002	2.532351e-002
3.326777215525481e+000	-6.188986e-002	2.474723e-002
3.336777215525481e+000	-7.000808e-002	2.408750e-002
3.346777215525481e+000	-7.764965e-002	2.334897e-002
3.356777215525481e+000	-8.479618e-002	2.253651e-002
3.366777215525481e+000	-9.143166e-002	2.165515e-002
3.376777215525480e+000	-9.754252e-002	2.071007e-002
3.386777215525480e+000	-1.031176e-001	1.970657e-002
3.396777215525480e+000	-1.081481e-001	1.865005e-002
3.416777215525479e+000	-1.165520e-001	1.639992e-002
3.436777215525479e+000	-1.227308e-001	1.400400e-002
3.456777215525479e+000	-1.266965e-001	1.150673e-002
3.466777215525478e+000	-1.278626e-001	1.023383e-002
3.476777215525478e+000	-1.284953e-001	8.951942e-003
3.486777215525478e+000	-1.286052e-001	7.666357e-003
3.496777215525478e+000	-1.282048e-001	6.382236e-003
3.506777215525478e+000	-1.273082e-001	5.104614e-003
3.516777215525477e+000	-1.259313e-001	3.838371e-003
3.526777215525477e+000	-1.240914e-001	2.588226e-003
3.536777215525477e+000	-1.218070e-001	1.358714e-003
3.546777215525477e+000	-1.190983e-001	1.541796e-004
3.556777215525476e+000	-1.159863e-001	-1.021239e-003
3.566777215525476e+000	-1.124934e-001	-2.163622e-003
3.576777215525476e+000	-1.086426e-001	-3.269274e-003
3.586777215525476e+000	-1.044580e-001	-4.334739e-003
3.596777215525476e+000	-9.996443e-002	-5.356803e-003
3.606777215525475e+000	-9.518717e-002	-6.332503e-003
3.616777215525475e+000	-9.015211e-002	-7.259131e-003
3.626777215525475e+000	-8.488546e-002	-8.134242e-003
3.636777215525475e+000	-7.941374e-002	-8.955653e-003
3.646777215525475e+000	-7.376361e-002	-9.721446e-003
3.656777215525474e+000	-6.796176e-002	-1.042997e-002
3.666777215525474e+000	-6.203483e-002	-1.107985e-002
3.676777215525474e+000	-5.600932e-002	-1.166995e-002
3.686777215525474e+000	-4.991144e-002	-1.219944e-002
3.706777215525473e+000	-3.760149e-002	-1.307442e-002
3.726777215525473e+000	-2.530586e-002	-1.370309e-002
3.746777215525472e+000	-1.321537e-002	-1.408765e-002
3.756777215525472e+000	-7.303338e-003	-1.419010e-002
3.766777215525472e+000	-1.508367e-003	-1.423402e-002
3.776777215525472e+000	4.149556e-003	-1.422067e-002
3.786777215525472e+000	9.651481e-003	-1.415152e-002
3.796777215525471e+000	1.497954e-002	-1.402823e-002
3.806777215525471e+000	2.011700e-002	-1.385260e-002
3.816777215525471e+000	2.504829e-002	-1.362664e-002
3.826777215525471e+000	2.975902e-002	-1.335247e-002
3.836777215525471e+000	3.423604e-002	-1.303236e-002
3.846777215525470e+000	3.846747e-002	-1.266872e-002
3.856777215525470e+000	4.244264e-002	-1.226404e-002
3.866777215525470e+000	4.615220e-002	-1.182095e-002
3.876777215525470e+000	4.958807e-002	-1.134213e-002
3.886777215525469e+000	5.274342e-002	-1.083036e-002
3.896777215525469e+000	5.561274e-002	-1.028847e-002
3.906777215525469e+000	5.819174e-002	-9.719352e-003
3.926777215525469e+000	6.246801e-002	-8.511096e-003
3.946777215525468e+000	6.556275e-002	-7.229156e-003
3.966777215525468e+000	6.748534e-002	-5.897092e-003
3.976777215525468e+000	6.801491e-002	-5.219535e-003
3.986777215525467e+000	6.826296e-002	-4.538096e-003
3.996777215525467e+000	6.823546e-002	-3.855562e-003
4.006777215525467e+000	6.793933e-002	-3.174653e-003
4.016777215525467e+000	6.738234e-002	-2.498016e-003
4.026777215525467e+000	6.657314e-002	-1.828218e-003
4.036777215525467e+000	6.552115e-002	-1.167731e-003
4.046777215525466e+000	6.423651e-002	-5.189344e-004
4.056777215525466e+000	6.273004e-002	1.159004e-004
4.066777215525466e+000	6.101315e-002	7.346121e-004
4.076777215525466e+000	5.909780e-002	1.335156e-003
4.086777215525466e+000	5.699647e-002	1.915612e-003
4.096777215525465e+000	5.472203e-002	2.474182e-003
4.106777215525465e+000	5.228774e-002	3.009204e-003
4.116777215525465e+000	4.970713e-002	3.519145e-003
4.126777215525465e+000	4.699401e-002	4.002613e-003
4.136777215525465e+000	4.416237e-002	4.458353e-003
4.146777215525464e+000	4.122629e-002	4.885250e-003
4.156777215525464e+000	3.819994e-002	5.282330e-003
4.166777215525464e+000	3.509751e-002	5.648762e-003
4.176777215525464e+000	3.193310e-002	5.983857e-003
4.186777215525463e+000	2.872074e-002	6.287065e-003
4.206777215525463e+000	2.220741e-002	6.796318e-003
4.226777215525463e+000	1.566564e-002	7.174878e-003
4.246777215525462e+000	9.198719e-003	7.423220e-003
4.256777215525462e+000	6.023939e-003	7.499259e-003
4.266777215525462e+000	2.903727e-003	7.543822e-003
4.276777215525462e+000	-1.509488e-004	7.557510e-003
4.286777215525461e+000	-3.129650e-003	7.541032e-003
4.296777215525461e+000	-6.022493e-003	7.495196e-003
